! Touchstone file exported from HFSS 2024.1.0
!        File:           /home/ubuntu/Ansoft/repo/patch_2_32GHz/sim_2_32GHz_3.aedt
!        Generated:      08:41:26 AM Nov 11, 2024
!        Design:         HFSSDesign1
!        Project:        sim_2_32GHz_3
!        Setup:          Setup1
!        Solution:       Sweep
!
! Variables:
!        R0 = 100ohm
!        pad = 45mm
!
# GHz S MA R 50.000000
! Terminal data exported
! Port[1] = u141_0711_201_1_pin_T1
1.8                            0.358705255606852 7.01819609273864 
1.82                           0.347988855445317 -4.23862563932618 
1.84                           0.336778086433864 -15.2441923238144 
1.86                           0.324906056204087 -25.9886733174069 
1.88                           0.312242956255113 -36.4629341356139 
1.9                            0.298702223895918 -46.6566718220779 
1.92                           0.284245856538352 -56.556607208756 
1.94                           0.26888885426394 -66.1448329527457 
1.96                           0.252702411551973 -75.397456687222 
1.98                           0.235815024389467 -84.2837690189668 
2                              0.218410134602448 -92.766311944795 
2.02                           0.200718334051804 -100.802402825735 
2.04                           0.183001608408576 -108.347781273757 
2.06                           0.165526939122799 -115.362801072459 
2.08                           0.148527546153036 -121.820355632841 
2.1                            0.13215352103938 -127.7114389222  
2.12                           0.11642139297033 -133.037602420119 
2.14                           0.101185639432966 -137.76825842524 
2.16                           0.0861746508695609 -141.721326707735 
2.18                           0.071164117456731 -144.283282998664 
2.2                            0.0564328231015527 -143.796859289674 
2.22                           0.0438055996285158 -136.663135791914 
2.24                           0.0379455740194419 -120.188501804995 
2.26                           0.0421904277325665 -104.862008404995 
2.28                           0.0509395390727348 -101.332383898378 
2.3                            0.0562498858346684 -105.778301477723 
2.32                           0.0540822562578385 -111.602550535413 
2.34                           0.0461219570128504 -111.803194864449 
2.36                           0.040423444548601 -100.571219278139 
2.38                           0.0442875054808526 -86.5457569449959 
2.4                            0.0533425458639264 -81.3152094343273 
2.42                           0.0610348499030525 -81.4085204454449 
2.44                           0.0659004562367766 -81.731867070923 
2.46                           0.0701318211177136 -79.924897243209 
2.48                           0.0774149938484894 -76.4312239785679 
2.5                            0.0904637486654747 -73.7767460887877 
2.52                           0.109468697900262 -74.0470819616146 
2.54                           0.132819194116919 -77.5389818123834 
2.56                           0.158481845899645 -83.5853322697967 
2.58                           0.184663833411247 -91.4332673718834 
2.6                            0.209952089358852 -100.522087499073 
2.62                           0.233295073702482 -110.48696105311 
2.64                           0.253960915613063 -121.10770134959 
2.66                           0.2714987446138  -132.264241165837 
2.68                           0.285705992573716 -143.906437891163 
2.7                            0.296602675927274 -156.034428530046 
2.72                           0.304414756876936 -168.684935119221 
2.74                           0.309568365873701 178.080340256303 
2.76                           0.312693987613932 164.187657112656 
2.78                           0.314634022936846 149.568756801965 
2.8                            0.316438262792578 134.185380208272 
