! Touchstone file exported from HFSS 2024.1.0
!        File:           /home/ubuntu/Ansoft/repo/patch_2_32GHz/sim_2_32GHz_3.aedt
!        Generated:      08:28:34 AM Nov 11, 2024
!        Design:         HFSSDesign1
!        Project:        sim_2_32GHz_3
!        Setup:          Setup1
!        Solution:       Sweep
!
! Variables:
!        R0 = 1000000ohm
!        pad = 45mm
!
# GHz S MA R 50.000000
! Terminal data exported
! Port[1] = u141_0711_201_1_pin_T1
1.8                            0.903140823232406 -72.8200516463157 
1.82                           0.89727776279164 -90.4457917253645 
1.84                           0.890225761307286 -108.669769463182 
1.86                           0.881774280984075 -127.622197718961 
1.88                           0.871762201523732 -147.428685983904 
1.9                            0.860140488367566 -168.188896062629 
1.92                           0.8470495665594  170.053341249464 
1.94                           0.832880247956497 147.344740448636 
1.96                           0.818261313386445 123.851142796498 
1.98                           0.803920350321655 99.8624605933623 
2                              0.790429146825106 75.7588791215229 
2.02                           0.777942319908063 51.9402976627112 
2.04                           0.766067065029975 28.7440656123757 
2.06                           0.753908991972659 6.38447774440558 
2.08                           0.740212754791081 -15.0677344729101 
2.1                            0.723476291329572 -35.6713780977762 
2.12                           0.701968059424492 -55.5841187835119 
2.14                           0.67364465573264 -75.0302230071161 
2.16                           0.636013627149238 -94.271396802466 
2.18                           0.586040748824382 -113.572763174995 
2.2                            0.520332014411444 -133.137800491991 
2.22                           0.436102239622594 -152.947105910641 
2.24                           0.333785815786908 -172.331159542035 
2.26                           0.221841852932005 171.25081957847  
2.28                           0.122464401530463 166.093500486294 
2.3                            0.0720986934370153 -172.167974787128 
2.32                           0.0662655006113736 -147.643815514176 
2.34                           0.0654590601966835 -120.247260409049 
2.36                           0.112143413918228 -96.6976767517941 
2.38                           0.200988337617598 -103.597451108844 
2.4                            0.296337547851981 -122.346865842534 
2.42                           0.380379274387741 -145.016466036305 
2.44                           0.447306992197947 -169.44346847264 
2.46                           0.498050699335956 164.841988044091 
2.48                           0.536671829966277 137.832148059773 
2.5                            0.568285613075636 109.552490978014 
2.52                           0.597647734547362 80.3348604593556 
2.54                           0.627781110058833 50.8868342925772 
2.56                           0.65906340671785 22.118447359849  
2.58                           0.689636961528431 -5.16772145773752 
2.6                            0.716937632886227 -30.5011197911634 
2.62                           0.739079014669586 -53.7728280726837 
2.64                           0.755307277113473 -75.1351797159038 
2.66                           0.765754131930777 -94.8783467525484 
2.68                           0.771013616780956 -113.339758435717 
2.7                            0.771829751879042 -130.853610152491 
2.72                           0.768941165267669 -147.728518676315 
2.74                           0.763038102485458 -164.240014265948 
2.76                           0.754782928856899 179.371527858385 
2.78                           0.744861130257388 162.903152595408 
2.8                            0.734039802897923 146.194866832285 
